freq/Hz	Re(Z)/Ohm	-Im(Z)/Ohm	
5.0001856E+005	1.5257714E+003	1.6932960E+003
3.3989944E+005	2.0288042E+003	1.8157316E+003
2.3106258E+005	2.5738088E+003	1.8371339E+003
1.5707580E+005	3.1135544E+003	1.7591948E+003
1.0678630E+005	3.5855742E+003	1.6044742E+003
7.2595016E+004	3.9736384E+003	1.4478916E+003
4.9352359E+004	4.2897461E+003	1.2919681E+003
3.3551066E+004	4.5221338E+003	1.1746738E+003
2.2806564E+004	4.7124160E+003	1.1181458E+003
1.5504377E+004	4.8934307E+003	1.0999402E+003
1.0540383E+004	5.0557651E+003	1.1587970E+003
7.1637822E+003	5.2120317E+003	1.3083367E+003
4.8715586E+003	5.3789985E+003	1.5600535E+003
3.3110593E+003	5.5702417E+003	1.9476061E+003
2.2507205E+003	5.7910459E+003	2.5134321E+003
1.5304894E+003	6.0685981E+003	3.3146584E+003
1.0403331E+003	6.3835073E+003	4.4302393E+003
7.0703656E+002	6.7606279E+003	6.0189131E+003
4.8076920E+002	7.2043203E+003	8.2576445E+003
3.2677765E+002	7.7143848E+003	1.1487105E+004
2.2206071E+002	8.3136357E+003	1.6104864E+004
1.5101480E+002	9.0533008E+003	2.2817314E+004
1.0266742E+002	1.0023714E+004	3.2518266E+004
6.9754463E+001	1.1364330E+004	4.6578715E+004
4.7444332E+001	1.3178945E+004	6.6852375E+004
3.2238651E+001	1.6012368E+004	9.6062906E+004
2.1914444E+001	2.0095129E+004	1.3817947E+005
1.4909352E+001	2.4538160E+004	1.9783453E+005
1.0132946E+001	3.6445586E+004	2.8487491E+005
6.8893299E+000	5.0037672E+004	4.0967681E+005
4.6837530E+000	7.0211789E+004	5.9056181E+005
3.1809855E+000	1.1136044E+005	8.4137969E+005
2.1653271E+000	1.5845180E+005	1.2136646E+006
1.4696200E+000	2.2838261E+005	1.7065415E+006
1.0000638E+000	3.2845325E+005	2.4037153E+006
5.0001856E+005	1.5294801E+003	1.7023326E+003
3.3989944E+005	2.0195911E+003	1.8179310E+003
2.3106258E+005	2.5770959E+003	1.8338060E+003
1.5707580E+005	3.1077266E+003	1.7584055E+003
1.0678630E+005	3.5763181E+003	1.6051400E+003
7.2595016E+004	3.9651118E+003	1.4451007E+003
4.9352359E+004	4.2790190E+003	1.2904274E+003
3.3551066E+004	4.5083428E+003	1.1699790E+003
2.2806564E+004	4.7098560E+003	1.1160853E+003
1.5504377E+004	4.8910908E+003	1.0978386E+003
1.0540383E+004	5.0510640E+003	1.1569556E+003
7.1637822E+003	5.2084087E+003	1.3046429E+003
4.8715586E+003	5.3735435E+003	1.5576024E+003
3.3110593E+003	5.5653301E+003	1.9467220E+003
2.2507205E+003	5.7883135E+003	2.5112068E+003
1.5304894E+003	6.0598286E+003	3.3108708E+003
1.0403331E+003	6.3775566E+003	4.4336792E+003
7.0703656E+002	6.7526934E+003	6.0061787E+003
4.8076920E+002	7.1890381E+003	8.2647344E+003
3.2677765E+002	7.6917437E+003	1.1452819E+004
2.2206071E+002	8.2899287E+003	1.6090401E+004
1.5101480E+002	9.0446543E+003	2.2797434E+004
1.0266742E+002	9.9906270E+003	3.2464168E+004
6.9754463E+001	1.1359907E+004	4.6508168E+004
4.7444332E+001	1.3201210E+004	6.6746117E+004
3.2238651E+001	1.5859313E+004	9.6167867E+004
2.1914444E+001	2.0080389E+004	1.3816011E+005
1.4909352E+001	2.6458467E+004	1.9886214E+005
1.0132946E+001	3.4953348E+004	2.8411138E+005
6.8893299E+000	5.0657895E+004	4.1050444E+005
4.6837530E+000	6.9056750E+004	5.8520863E+005
3.1809855E+000	1.0624002E+005	8.4490450E+005
2.1653271E+000	1.4947553E+005	1.1967833E+006
1.4696200E+000	2.2578333E+005	1.7230438E+006
1.0000638E+000	3.1522125E+005	2.4035390E+006
5.0001856E+005	1.5250455E+003	1.6908369E+003
3.3989944E+005	2.0195918E+003	1.8083722E+003
2.3106258E+005	2.5691890E+003	1.8312229E+003
1.5707580E+005	3.1043638E+003	1.7544264E+003
1.0678630E+005	3.5676230E+003	1.6023844E+003
7.2595016E+004	3.9586860E+003	1.4417172E+003
4.9352359E+004	4.2793877E+003	1.2811063E+003
3.3551066E+004	4.5247983E+003	1.1722887E+003
2.2806564E+004	4.7073794E+003	1.1157506E+003
1.5504377E+004	4.8843438E+003	1.0986984E+003
1.0540383E+004	5.0464482E+003	1.1538759E+003
7.1637822E+003	5.2059585E+003	1.3020391E+003
4.8715586E+003	5.3660322E+003	1.5594492E+003
3.3110593E+003	5.5582056E+003	1.9472159E+003
2.2507205E+003	5.7842920E+003	2.5110344E+003
1.5304894E+003	6.0498726E+003	3.3062571E+003
1.0403331E+003	6.3759019E+003	4.4202544E+003
7.0703656E+002	6.7469473E+003	6.0013965E+003
4.8076920E+002	7.1796851E+003	8.2465488E+003
3.2677765E+002	7.6783208E+003	1.1463389E+004
2.2206071E+002	8.3229668E+003	1.6072136E+004
1.5101480E+002	9.0415400E+003	2.2777115E+004
1.0266742E+002	9.9647051E+003	3.2482762E+004
6.9754463E+001	1.1303313E+004	4.6472199E+004
4.7444332E+001	1.3229031E+004	6.6765297E+004
3.2238651E+001	1.5946648E+004	9.5968328E+004
2.1914444E+001	2.0292703E+004	1.3781564E+005
1.4909352E+001	2.6391217E+004	1.9865773E+005
1.0132946E+001	3.5305945E+004	2.8327688E+005
6.8893299E+000	4.9465594E+004	4.0754413E+005
4.6837530E+000	7.2194461E+004	5.8881413E+005
3.1809855E+000	1.0410408E+005	8.4097663E+005
2.1653271E+000	1.4141177E+005	1.1932159E+006
1.4696200E+000	2.1004822E+005	1.7158106E+006
1.0000638E+000	3.3826959E+005	2.4405558E+006
=== Z fit Analysis (04/26/22 14:18) ===
Equivalent circuit:
   R1+Q2/R2+Q3
   R1 = 6.071e-12 Ohm
   Q2 = 8.731e-9 F.s^(a - 1)
   a2 = 0.709 1 
   R2 = 5 561 Ohm
   Q3 = 76.99e-9 F.s^(a - 1)
   a3 = 0.918 6 
Fit:
   select: current cycle(s)
   method: Randomize + Simplex
   stop Randomize on: 5000 iterations
   stop fit on: 5000 iterations
   weight: |Z|

