freq/Hz	Re(Z)/Ohm	-Im(Z)/Ohm	
5.0001856E+005	2.5783257E+001	-1.9047405E+000
3.3746847E+005	2.5552414E+001	-3.2996809E-001
2.2777798E+005	2.5498814E+001	8.6399341E-001
1.5373553E+005	2.5690903E+001	2.1132905E+000
1.0376151E+005	2.6064487E+001	3.6006701E+000
7.0034148E+004	2.6527443E+001	5.3418536E+000
4.7273977E+004	2.7387953E+001	7.5208278E+000
3.1908773E+004	2.8430050E+001	1.0440814E+001
2.1535408E+004	3.0196978E+001	1.4320397E+001
1.4530134E+004	3.2905918E+001	1.9341232E+001
9.8073789E+003	3.7120724E+001	2.5753864E+001
6.6620737E+003	4.3235672E+001	3.3393524E+001
4.4664292E+003	5.2495827E+001	4.2301029E+001
3.0159653E+003	6.5242828E+001	5.1145927E+001
2.0356514E+003	8.1688156E+001	5.8611866E+001
1.3736815E+003	1.0157100E+002	6.2890091E+001
9.2767200E+002	1.2285141E+002	6.2733170E+001
6.2600159E+002	1.4270435E+002	5.7515163E+001
4.2229733E+002	1.5906805E+002	4.8709545E+001
2.8509122E+002	1.7071010E+002	3.8558590E+001
1.9252596E+002	1.7836003E+002	2.9319803E+001
1.2987535E+002	1.8238788E+002	2.1175968E+001
8.7671425E+001	1.8506664E+002	1.5084177E+001
5.9185604E+001	1.8626941E+002	1.0831347E+001
3.9961639E+001	1.8789317E+002	7.8407764E+000
2.6939653E+001	1.8834854E+002	5.9630384E+000
1.8210957E+001	1.8890262E+002	4.5874310E+000
1.2283805E+001	1.8943877E+002	3.8503983E+000
8.2935228E+000	1.8965904E+002	3.4093475E+000
5.5963469E+000	1.9007233E+002	3.1991565E+000
3.7778049E+000	1.9073859E+002	3.3185091E+000
2.5481083E+000	1.9141811E+002	3.4437423E+000
1.7208152E+000	1.9215276E+002	3.8033803E+000
1.1601573E+000	1.9300372E+002	4.2478056E+000
7.8391540E-001	1.9405617E+002	4.8956857E+000
5.2944565E-001	1.9519937E+002	5.6833034E+000
3.5673514E-001	1.9641949E+002	6.4922352E+000
2.4074021E-001	1.9785962E+002	7.3321376E+000
1.6278075E-001	1.9962755E+002	8.5082512E+000
1.0967685E-001	2.0185713E+002	9.8980598E+000
7.4052162E-002	2.0396306E+002	1.1538490E+001
5.0035227E-002	2.0646831E+002	1.3265798E+001
5.0001856E+005	2.5699987E+001	-1.8778565E+000
3.3746847E+005	2.5534407E+001	-3.0841926E-001
2.2777798E+005	2.5526535E+001	9.1441870E-001
1.5373553E+005	2.5698555E+001	2.1237023E+000
1.0376151E+005	2.6069675E+001	3.5917749E+000
7.0034148E+004	2.6558828E+001	5.2999802E+000
4.7273977E+004	2.7352468E+001	7.4647527E+000
3.1908773E+004	2.8457453E+001	1.0472152E+001
2.1535408E+004	3.0242334E+001	1.4312251E+001
1.4530134E+004	3.2842281E+001	1.9351498E+001
9.8073789E+003	3.7097839E+001	2.5724934E+001
6.6620737E+003	4.3215546E+001	3.3420105E+001
4.4664292E+003	5.2412498E+001	4.2255516E+001
3.0159653E+003	6.5231926E+001	5.1097340E+001
2.0356514E+003	8.1741402E+001	5.8608932E+001
1.3736815E+003	1.0151996E+002	6.2938000E+001
9.2767200E+002	1.2280074E+002	6.2638165E+001
6.2600159E+002	1.4267406E+002	5.7448036E+001
4.2229733E+002	1.5895032E+002	4.8724930E+001
2.8509122E+002	1.7055310E+002	3.8483490E+001
1.9252596E+002	1.7812268E+002	2.9205629E+001
1.2987535E+002	1.8229749E+002	2.0971342E+001
8.7671425E+001	1.8488681E+002	1.5215174E+001
5.9185604E+001	1.8592216E+002	1.0928806E+001
3.9961639E+001	1.8759216E+002	7.8241372E+000
2.6939653E+001	1.8831689E+002	5.9173017E+000
1.8210957E+001	1.8877872E+002	4.5623097E+000
1.2283805E+001	1.8919176E+002	3.7521410E+000
8.2935228E+000	1.8961197E+002	3.3320181E+000
5.5963469E+000	1.9003659E+002	3.1297622E+000
3.7778049E+000	1.9071109E+002	3.1150558E+000
2.5481083E+000	1.9122957E+002	3.4978228E+000
1.7208152E+000	1.9198892E+002	3.7964756E+000
1.1601573E+000	1.9284636E+002	4.3712249E+000
7.8391540E-001	1.9376810E+002	4.9156432E+000
5.2944565E-001	1.9498393E+002	5.5126595E+000
3.5673514E-001	1.9643488E+002	6.3313942E+000
2.4074021E-001	1.9797246E+002	7.4361687E+000
1.6278075E-001	1.9962340E+002	8.5299835E+000
1.0967685E-001	2.0166187E+002	9.7465477E+000
7.4052162E-002	2.0418457E+002	1.1289257E+001
5.0035227E-002	2.0695340E+002	1.3315367E+001
=== Z fit Analysis (01/15/21 14:41) ===
Equivalent circuit:
   R1+Q2/R2+Q3
   R1 = 25.14 Ohm
   Q2 = 3.283e-6 F.s^(a - 1)
   a2 = 0.838 3 
   R2 = 164.3 Ohm
   Q3 = 0.076 93 F.s^(a - 1)
   a3 = 0.455 1 
Fit:
   select: 2 cycle(s)
   method: Randomize + Simplex
   stop Randomize on: 5000 iterations
   stop fit on: 5000 iterations
   weight: |Z|


