freq/Hz	Re(Z)/Ohm	-Im(Z)/Ohm	
5.0001856E+005	3.7090214E+001	-1.8707529E+000
3.3746847E+005	3.6647541E+001	-3.4619373E-001
2.2777798E+005	3.6220993E+001	9.5364243E-001
1.5373553E+005	3.6226501E+001	2.1994476E+000
1.0376151E+005	3.6511848E+001	3.6069953E+000
7.0034148E+004	3.7087635E+001	5.2811651E+000
4.7273977E+004	3.7870518E+001	7.2403069E+000
3.1908773E+004	3.8950989E+001	9.7828197E+000
2.1535408E+004	4.0674168E+001	1.3111963E+001
1.4530134E+004	4.2867966E+001	1.7243118E+001
9.8073789E+003	4.5746548E+001	2.2677092E+001
6.6620737E+003	4.9626896E+001	2.9703394E+001
4.4664292E+003	5.5553661E+001	3.9071461E+001
3.0159653E+003	6.4292183E+001	5.0789303E+001
2.0356514E+003	7.7629204E+001	6.4681541E+001
1.3736815E+003	9.7448677E+001	7.9418327E+001
9.2767200E+002	1.2511494E+002	9.1340553E+001
6.2600159E+002	1.5800914E+002	9.5339516E+001
4.2229733E+002	1.9108583E+002	8.8890884E+001
2.8509122E+002	2.1722488E+002	7.4635475E+001
1.9252596E+002	2.3561964E+002	5.8597057E+001
1.2987535E+002	2.4728389E+002	4.3539284E+001
8.7671425E+001	2.5363869E+002	3.1392141E+001
5.9185604E+001	2.5643884E+002	2.2541248E+001
3.9961639E+001	2.5847729E+002	1.6050173E+001
2.6939653E+001	2.5930536E+002	1.1659949E+001
1.8210957E+001	2.5999731E+002	8.7731380E+000
1.2283805E+001	2.6038074E+002	6.8303509E+000
8.2935228E+000	2.6115161E+002	5.7280798E+000
5.5963469E+000	2.6166678E+002	5.2155352E+000
3.7778049E+000	2.6243204E+002	4.7614508E+000
2.5481083E+000	2.6269449E+002	4.9117184E+000
1.7208152E+000	2.6325919E+002	5.2094636E+000
1.1601573E+000	2.6343362E+002	5.8460383E+000
7.8391540E-001	2.6427417E+002	6.4504509E+000
5.2944565E-001	2.6491846E+002	7.1993542E+000
3.5673514E-001	2.6472910E+002	8.2028551E+000
2.4074021E-001	2.6520941E+002	9.5796604E+000
1.6278075E-001	2.6721652E+002	1.0974767E+001
1.0967685E-001	2.7191302E+002	1.2505811E+001
7.4052162E-002	2.7944250E+002	1.4591534E+001
5.0035227E-002	2.8414700E+002	1.7449032E+001
5.0001856E+005	3.4835484E+001	-1.9527048E+000
3.3746847E+005	3.4439415E+001	-3.5575202E-001
2.2777798E+005	3.4275150E+001	8.8646066E-001
1.5373553E+005	3.4390102E+001	2.1612110E+000
1.0376151E+005	3.4845211E+001	3.6316557E+000
7.0034148E+004	3.5307392E+001	5.2541409E+000
4.7273977E+004	3.6217232E+001	7.2554669E+000
3.1908773E+004	3.7439640E+001	9.7958136E+000
2.1535408E+004	3.9099884E+001	1.3140572E+001
1.4530134E+004	4.1455566E+001	1.7298012E+001
9.8073789E+003	4.4589252E+001	2.2823650E+001
6.6620737E+003	4.8795261E+001	2.9870380E+001
4.4664292E+003	5.5018276E+001	3.9279907E+001
3.0159653E+003	6.3779953E+001	5.0965542E+001
2.0356514E+003	7.7137062E+001	6.4947807E+001
1.3736815E+003	9.7126801E+001	7.9836632E+001
9.2767200E+002	1.2472835E+002	9.2050446E+001
6.2600159E+002	1.5843982E+002	9.6431862E+001
4.2229733E+002	1.9185619E+002	9.0425919E+001
2.8509122E+002	2.1887804E+002	7.6050209E+001
1.9252596E+002	2.3768742E+002	5.9558819E+001
1.2987535E+002	2.5014876E+002	4.4284176E+001
8.7671425E+001	2.5617978E+002	3.1793650E+001
5.9185604E+001	2.5975052E+002	2.2782259E+001
3.9961639E+001	2.6175793E+002	1.6347363E+001
2.6939653E+001	2.6260016E+002	1.1702435E+001
1.8210957E+001	2.6352023E+002	8.7821045E+000
1.2283805E+001	2.6432788E+002	7.0838332E+000
8.2935228E+000	2.6494199E+002	5.7404656E+000
5.5963469E+000	2.6522870E+002	5.1050315E+000
3.7778049E+000	2.6622498E+002	5.0378804E+000
2.5481083E+000	2.6715958E+002	5.1224742E+000
1.7208152E+000	2.6824026E+002	5.1830659E+000
1.1601573E+000	2.6932379E+002	5.8494382E+000
7.8391540E-001	2.7046243E+002	6.4611468E+000
5.2944565E-001	2.7200366E+002	7.2850451E+000
3.5673514E-001	2.7376544E+002	8.4575548E+000
2.4074021E-001	2.7568533E+002	9.8033543E+000
1.6278075E-001	2.7805463E+002	1.1067654E+001
1.0967685E-001	2.8134402E+002	1.2716273E+001
7.4052162E-002	2.8543698E+002	1.4880524E+001
5.0035227E-002	2.8995361E+002	1.7431948E+001
=== Z fit Analysis (01/15/21 14:41) ===
Equivalent circuit:
   R1+Q2/R2+Q3
   R1 = 34.49 Ohm
   Q2 = 3.828e-6 F.s^(a - 1)
   a2 = 0.839 2 
   R2 = 234.1 Ohm
   Q3 = 0.069 76 F.s^(a - 1)
   a3 = 0.536 4 
Fit:
   select: 2nd cycle(s)
   method: Randomize + Simplex
   stop Randomize on: 5000 iterations
   stop fit on: 5000 iterations
   weight: |Z|

