freq/Hz	Re(Z)/Ohm	-Im(Z)/Ohm	
5.0001856E+005	1.4530539E+001	-3.1874931E+000
3.3746847E+005	1.4466439E+001	-1.2657496E+000
2.2777798E+005	1.4479771E+001	3.6523792E-001
1.5373553E+005	1.4657242E+001	1.9834130E+000
1.0376151E+005	1.5031044E+001	3.7382090E+000
7.0034148E+004	1.5585392E+001	5.8123093E+000
4.7273977E+004	1.6374121E+001	8.4257059E+000
3.1908773E+004	1.7484861E+001	1.1845668E+001
2.1535408E+004	1.9117847E+001	1.6405977E+001
1.4530134E+004	2.1541052E+001	2.2594316E+001
9.8073789E+003	2.5211489E+001	3.0758318E+001
6.6620737E+003	3.0728363E+001	4.1476208E+001
4.4664292E+003	3.9328583E+001	5.5629040E+001
3.0159653E+003	5.2012890E+001	7.2758209E+001
2.0356514E+003	7.0953651E+001	9.2730087E+001
1.3736815E+003	9.7993263E+001	1.1406255E+002
9.2767200E+002	1.3444067E+002	1.3352129E+002
6.2600159E+002	1.7994637E+002	1.4642928E+002
4.2229733E+002	2.3022205E+002	1.4803012E+002
2.8509122E+002	2.7873514E+002	1.3693146E+002
1.9252596E+002	3.1958301E+002	1.1880019E+002
1.2987535E+002	3.4895972E+002	9.4939034E+001
8.7671425E+001	3.6789420E+002	7.2471550E+001
5.9185604E+001	3.7936777E+002	5.2789585E+001
3.9961639E+001	3.8607178E+002	3.8092136E+001
2.6939653E+001	3.8980795E+002	2.7042217E+001
1.8210957E+001	3.9224600E+002	1.9509190E+001
1.2283805E+001	3.9325925E+002	1.4087496E+001
8.2935228E+000	3.9472247E+002	1.0784688E+001
5.5963469E+000	3.9531949E+002	8.1861296E+000
3.7778049E+000	3.9630344E+002	7.3046503E+000
2.5481083E+000	3.9765039E+002	7.0991673E+000
1.7208152E+000	3.9859680E+002	6.7168708E+000
1.1601573E+000	4.0043573E+002	7.2853365E+000
7.8391540E-001	4.0184067E+002	8.0084715E+000
5.2944565E-001	4.0378326E+002	8.7695618E+000
3.5673514E-001	4.0616745E+002	9.8075142E+000
2.4074021E-001	4.0887338E+002	1.1298523E+001
1.6278075E-001	4.1197308E+002	1.2864206E+001
1.0967685E-001	4.1579959E+002	1.4500942E+001
7.4052162E-002	4.2072101E+002	1.6557707E+001
5.0035227E-002	4.2668228E+002	1.9433765E+001
5.0001856E+005	1.4696218E+001	-3.1145363E+000
3.3746847E+005	1.4579091E+001	-1.2372686E+000
2.2777798E+005	1.4576257E+001	3.8069731E-001
1.5373553E+005	1.4774842E+001	1.9905628E+000
1.0376151E+005	1.5136792E+001	3.7697246E+000
7.0034148E+004	1.5680694E+001	5.8407984E+000
4.7273977E+004	1.6460230E+001	8.4403744E+000
3.1908773E+004	1.7601465E+001	1.1865810E+001
2.1535408E+004	1.9214418E+001	1.6459259E+001
1.4530134E+004	2.1621643E+001	2.2668612E+001
9.8073789E+003	2.5274780E+001	3.0941584E+001
6.6620737E+003	3.0819719E+001	4.1684719E+001
4.4664292E+003	3.9387955E+001	5.5939713E+001
3.0159653E+003	5.2157997E+001	7.3170250E+001
2.0356514E+003	7.1052849E+001	9.3514290E+001
1.3736815E+003	9.8187927E+001	1.1537064E+002
9.2767200E+002	1.3474724E+002	1.3520107E+002
6.2600159E+002	1.8087320E+002	1.4841170E+002
4.2229733E+002	2.3131497E+002	1.5073384E+002
2.8509122E+002	2.8243909E+002	1.4193745E+002
1.9252596E+002	3.2401987E+002	1.2189700E+002
1.2987535E+002	3.5375977E+002	9.7763557E+001
8.7671425E+001	3.7390811E+002	7.4360619E+001
5.9185604E+001	3.8586963E+002	5.4465397E+001
3.9961639E+001	3.9299902E+002	3.9441212E+001
2.6939653E+001	3.9660724E+002	2.7991707E+001
1.8210957E+001	3.9914044E+002	2.0367203E+001
1.2283805E+001	4.0017581E+002	1.4615483E+001
8.2935228E+000	4.0173889E+002	1.1251431E+001
5.5963469E+000	4.0246545E+002	8.6724567E+000
3.7778049E+000	4.0379913E+002	7.2919931E+000
2.5481083E+000	4.0484253E+002	7.0570264E+000
1.7208152E+000	4.0630325E+002	7.0103478E+000
1.1601573E+000	4.0788333E+002	7.1858597E+000
7.8391540E-001	4.0937836E+002	8.0458746E+000
5.2944565E-001	4.1129739E+002	8.9613781E+000
3.5673514E-001	4.1356387E+002	9.9680204E+000
2.4074021E-001	4.1646527E+002	1.1362813E+001
1.6278075E-001	4.1982031E+002	1.3033636E+001
1.0967685E-001	4.2365637E+002	1.4981860E+001
7.4052162E-002	4.2848123E+002	1.7027899E+001
5.0035227E-002	4.3491785E+002	1.9491943E+001
=== Z fit Analysis (01/15/21 15:18) ===
Equivalent circuit:
   R1+Q2/R2+Q3
   R1 = 13.99 Ohm
   Q2 = 2.879e-6 F.s^(a - 1)
   a2 = 0.840 8 
   R2 = 385.4 Ohm
   Q3 = 0.057 21 F.s^(a - 1)
   a3 = 0.455 6 
Fit:
   select: 1st cycle(s)
   method: Randomize + Simplex
   stop Randomize on: 5000 iterations
   stop fit on: 5000 iterations
   weight: |Z|

