freq/Hz	Re(Z)/Ohm	-Im(Z)/Ohm	
5.0001856E+005	6.9176773E+001	-1.2112006E+000
3.3746847E+005	6.9264046E+001	-1.6967200E-001
2.2777798E+005	6.9252319E+001	1.1639521E+000
1.5373553E+005	6.9035851E+001	2.7142527E+000
1.0376151E+005	6.9151855E+001	4.4193697E+000
7.0034148E+004	6.9599541E+001	6.3611712E+000
4.7273977E+004	6.9893806E+001	8.6864357E+000
3.1908773E+004	7.0556259E+001	1.1573825E+001
2.1535408E+004	7.2265068E+001	1.5288072E+001
1.4530134E+004	7.4418716E+001	2.0123236E+001
9.8073789E+003	7.7343224E+001	2.6440355E+001
6.6620737E+003	8.1430344E+001	3.4783127E+001
4.4664292E+003	8.6731857E+001	4.6079552E+001
3.0159653E+003	9.5003891E+001	6.0713394E+001
2.0356514E+003	1.0755403E+002	7.9981461E+001
1.3736815E+003	1.2576573E+002	1.0424095E+002
9.2767200E+002	1.5369939E+002	1.3299297E+002
6.2600159E+002	1.9517523E+002	1.6303554E+002
4.2229733E+002	2.5347955E+002	1.8728265E+002
2.8509122E+002	3.2204001E+002	1.9477614E+002
1.9252596E+002	3.8917514E+002	1.8038828E+002
1.2987535E+002	4.4237381E+002	1.4987100E+002
8.7671425E+001	4.7750034E+002	1.1571853E+002
5.9185604E+001	4.9890875E+002	8.5023239E+001
3.9961639E+001	5.1061633E+002	6.0778465E+001
2.6939653E+001	5.1652625E+002	4.3701366E+001
1.8210957E+001	5.2122443E+002	3.1200666E+001
1.2283805E+001	5.2363971E+002	2.2137526E+001
8.2935228E+000	5.2592505E+002	1.6859764E+001
5.5963469E+000	5.2666290E+002	1.2353271E+001
3.7778049E+000	5.2796375E+002	1.1241012E+001
2.5481083E+000	5.3075641E+002	9.6344938E+000
1.7208152E+000	5.3549170E+002	9.3916559E+000
1.1601573E+000	5.4028082E+002	9.5600805E+000
7.8391540E-001	5.4107043E+002	1.0353243E+001
5.2944565E-001	5.4462274E+002	1.1548509E+001
3.5673514E-001	5.4114880E+002	1.2885122E+001
2.4074021E-001	5.4690668E+002	1.5085567E+001
1.6278075E-001	5.5051733E+002	1.7475420E+001
1.0967685E-001	5.5321417E+002	2.0934429E+001
7.4052162E-002	5.7375269E+002	2.4649509E+001
5.0035227E-002	5.6662518E+002	2.8622570E+001
=== Z fit Analysis (01/15/21 14:40) ===
Equivalent circuit:
   R1+Q2/R2+Q3
   R1 = 68.83 Ohm
   Q2 = 3.403e-6 F.s^(a - 1)
   a2 = 0.847 3 
   R2 = 467.7 Ohm
   Q3 = 0.044 51 F.s^(a - 1)
   a3 = 0.542 7 
Fit:
   select: 1st cycle(s)
   method: Randomize + Simplex
   stop Randomize on: 5000 iterations
   stop fit on: 5000 iterations
   weight: |Z|



